
T3B5C 000:363 SEGGER J-Link V4.96b Log File (0000ms, 0271ms total)
T3B5C 000:363 DLL Compiled: Jan 19 2015 09:15:55 (0000ms, 0271ms total)
T3B5C 000:363 Logging started @ 2019-06-09 20:16 (0000ms, 0271ms total)
T3B5C 000:363 JLINK_SetWarnOutHandler(...) (0000ms, 0271ms total)
T3B5C 000:363 JLINK_OpenEx(...)
Firmware: J-Link OB-STM32F072-CortexM compiled Mar  8 2020 11:15:54
Hardware: V1.00
Feature(s): GDB, RDI, FlashBP, FlashDL, JFlash, RDDI  returns O.K. (0275ms, 0546ms total)
T3B5C 000:638 JLINK_SetErrorOutHandler(...) (0000ms, 0546ms total)
T3B5C 000:638 JLINK_ExecCommand("ProjectFile = "F:\excitationPulse\Ver_F8_·­Ò³\JLinkSettings.ini"", ...)  returns 0x00 (0001ms, 0547ms total)
T3B5C 000:648 JLINK_ExecCommand("Device = STM32F103VE", ...)Device "STM32F103VE" selected.  returns 0x00 (0022ms, 0569ms total)
T3B5C 000:670 JLINK_ExecCommand("DisableConnectionTimeout", ...)  returns 0x01 (0000ms, 0569ms total)
T3B5C 000:670 JLINK_GetHardwareVersion()  returns 0x2710 (0000ms, 0569ms total)
T3B5C 000:670 JLINK_GetDLLVersion()  returns 49602 (0000ms, 0569ms total)
T3B5C 000:670 JLINK_GetFirmwareString(...) (0000ms, 0569ms total)
T3B5C 000:706 JLINK_GetDLLVersion()  returns 49602 (0000ms, 0569ms total)
T3B5C 000:706 JLINK_GetCompileDateTime() (0000ms, 0569ms total)
T3B5C 000:709 JLINK_GetFirmwareString(...) (0000ms, 0569ms total)
T3B5C 000:713 JLINK_GetHardwareVersion()  returns 0x2710 (0000ms, 0569ms total)
T3B5C 000:728 JLINK_TIF_Select(JLINKARM_TIF_SWD)  returns 0x00 (0000ms, 0569ms total)
T3B5C 000:728 JLINK_SetSpeed(10000) (0000ms, 0569ms total)
T3B5C 000:729 JLINK_GetId() >0x108 TIF>Found SWD-DP with ID 0x1BA01477 >0x0D TIF> >0x28 TIF> >0x0D TIF> >0x28 TIF> >0x0D TIF> >0x21 TIF> >0x0D TIF> >0x28 TIF> >0x0D TIF> >0x28 TIF> >0x0D TIF> >0x28 TIF> >0x0D TIF> >0x21 TIF> >0x0D TIF> >0x21 TIF> >0x0D TIF> >0x28 TIF> >0x0D TIF> >0x21 TIF> >0x0D TIF> >0x21 TIF> >0x0D TIF> >0x28 TIF> >0x0D TIF> >0x28 TIF> >0x108 TIF>Found SWD-DP with ID 0x1BA01477 >0x0D TIF> >0x21 TIF> >0x0D TIF> >0x28 TIF> >0x0D TIF> >0x28 TIF> >0x0D TIF> >0x21 TIF> >0x0D TIF> >0x28 TIF>
 >0x0D TIF> >0x21 TIF> >0x0D TIF> >0x21 TIF> >0x0D TIF> >0x21 TIF> >0x0D TIF> >0x21 TIF> >0x0D TIF> >0x28 TIF> >0x0D TIF> >0x28 TIF> >0x0D TIF> >0x21 TIF> >0x0D TIF> >0x28 TIF> >0x0D TIF> >0x28 TIF> >0x0D TIF> >0x28 TIF> >0x0D TIF> >0x21 TIF> >0x0D TIF> >0x21 TIF> >0x0D TIF> >0x28 TIF> >0x0D TIF> >0x21 TIF> >0x0D TIF> >0x21 TIF>Found Cortex-M3 r1p1, Little endian. -- CPU_WriteMem(4 bytes @ 0xE0002000) -- CPU_ReadMem(4 bytes @ 0xE000EDF0) -- CPU_WriteMem(4 bytes @ 0xE000EDF0)
 -- CPU_ReadMem(4 bytes @ 0xE0002000)FPUnit: 6 code (BP) slots and 2 literal slots -- CPU_ReadMem(4 bytes @ 0xE000EDFC) -- CPU_WriteMem(4 bytes @ 0xE000EDFC) -- CPU_ReadMem(4 bytes @ 0xE0001000) -- CPU_WriteMem(4 bytes @ 0xE0001000) -- CPU_ReadMem(4 bytes @ 0xE000ED88) -- CPU_WriteMem(4 bytes @ 0xE000ED88) -- CPU_ReadMem(4 bytes @ 0xE000ED88) -- CPU_WriteMem(4 bytes @ 0xE000ED88) -- CPU_ReadMem(4 bytes @ 0xE00FF010)TPIU fitted. -- CPU_ReadMem(4 bytes @ 0xE00FF014)ETM fitted.
 -- CPU_ReadMem(4 bytes @ 0xE00FF018) >0x0D TIF> >0x21 TIF>  returns 0x1BA01477 (0046ms, 0615ms total)
T3B5C 000:775 JLINK_GetDLLVersion()  returns 49602 (0000ms, 0615ms total)
T3B5C 000:775 JLINK_CORE_GetFound()  returns 0x30000FF (0000ms, 0615ms total)
T3B5C 000:775 JLINK_GetDebugInfo(0x100) -- Value=0xE00FF003  returns 0x00 (0000ms, 0615ms total)
T3B5C 000:778 JLINK_ReadMem (0xE00FF000, 0x0020 Bytes, ...) -- CPU is running -- CPU_ReadMem(32 bytes @ 0xE00FF000) - Data: 03 F0 F0 FF 03 20 F0 FF 03 30 F0 FF 03 10 F0 FF ...  returns 0x00 (0001ms, 0616ms total)
T3B5C 000:779 JLINK_ReadMem (0xE000EFF0, 0x0010 Bytes, ...) -- CPU is running -- CPU_ReadMem(16 bytes @ 0xE000EFF0) - Data: 0D 00 00 00 E0 00 00 00 05 00 00 00 B1 00 00 00  returns 0x00 (0001ms, 0617ms total)
T3B5C 000:780 JLINK_ReadMem (0xE000EFD0, 0x0020 Bytes, ...) -- CPU is running -- CPU_ReadMem(32 bytes @ 0xE000EFD0) - Data: 04 00 00 00 00 00 00 00 00 00 00 00 00 00 00 00 ...  returns 0x00 (0000ms, 0617ms total)
T3B5C 000:780 JLINK_ReadMem (0xE0001FF0, 0x0010 Bytes, ...) -- CPU is running -- CPU_ReadMem(16 bytes @ 0xE0001FF0) - Data: 0D 00 00 00 E0 00 00 00 05 00 00 00 B1 00 00 00  returns 0x00 (0001ms, 0618ms total)
T3B5C 000:781 JLINK_ReadMem (0xE0001FD0, 0x0020 Bytes, ...) -- CPU is running -- CPU_ReadMem(32 bytes @ 0xE0001FD0) - Data: 04 00 00 00 00 00 00 00 00 00 00 00 00 00 00 00 ...  returns 0x00 (0001ms, 0619ms total)
T3B5C 000:782 JLINK_ReadMem (0xE0002FF0, 0x0010 Bytes, ...) -- CPU is running -- CPU_ReadMem(16 bytes @ 0xE0002FF0) - Data: 0D 00 00 00 E0 00 00 00 05 00 00 00 B1 00 00 00  returns 0x00 (0000ms, 0619ms total)
T3B5C 000:782 JLINK_ReadMem (0xE0002FD0, 0x0020 Bytes, ...) -- CPU is running -- CPU_ReadMem(32 bytes @ 0xE0002FD0) - Data: 04 00 00 00 00 00 00 00 00 00 00 00 00 00 00 00 ...  returns 0x00 (0001ms, 0620ms total)
T3B5C 000:783 JLINK_ReadMem (0xE0000FF0, 0x0010 Bytes, ...) -- CPU is running -- CPU_ReadMem(16 bytes @ 0xE0000FF0) - Data: 0D 00 00 00 E0 00 00 00 05 00 00 00 B1 00 00 00  returns 0x00 (0001ms, 0621ms total)
T3B5C 000:784 JLINK_ReadMem (0xE0000FD0, 0x0020 Bytes, ...) -- CPU is running -- CPU_ReadMem(32 bytes @ 0xE0000FD0) - Data: 04 00 00 00 00 00 00 00 00 00 00 00 00 00 00 00 ...  returns 0x00 (0001ms, 0622ms total)
T3B5C 000:785 JLINK_ReadMem (0xE0040FF0, 0x0010 Bytes, ...) -- CPU is running -- CPU_ReadMem(16 bytes @ 0xE0040FF0) - Data: 0D 00 00 00 90 00 00 00 05 00 00 00 B1 00 00 00  returns 0x00 (0000ms, 0622ms total)
T3B5C 000:785 JLINK_ReadMem (0xE0040FD0, 0x0020 Bytes, ...) -- CPU is running -- CPU_ReadMem(32 bytes @ 0xE0040FD0) - Data: 04 00 00 00 00 00 00 00 00 00 00 00 00 00 00 00 ...  returns 0x00 (0001ms, 0623ms total)
T3B5C 000:786 JLINK_ReadMem (0xE0041FF0, 0x0010 Bytes, ...) -- CPU is running -- CPU_ReadMem(16 bytes @ 0xE0041FF0) - Data: 0D 00 00 00 90 00 00 00 05 00 00 00 B1 00 00 00  returns 0x00 (0001ms, 0624ms total)
T3B5C 000:787 JLINK_ReadMem (0xE0041FD0, 0x0020 Bytes, ...) -- CPU is running -- CPU_ReadMem(32 bytes @ 0xE0041FD0) - Data: 04 00 00 00 00 00 00 00 00 00 00 00 00 00 00 00 ...  returns 0x00 (0001ms, 0625ms total)
T3B5C 000:788 JLINK_ReadMemU32(0xE000ED00, 0x0001 Items, ...) -- CPU is running -- CPU_ReadMem(4 bytes @ 0xE000ED00) - Data: 31 C2 1F 41  returns 0x01 (0000ms, 0625ms total)
T3B5C 000:788 JLINK_SetResetType(JLINKARM_RESET_TYPE_NORMAL)  returns JLINKARM_RESET_TYPE_NORMAL (0000ms, 0625ms total)
T3B5C 000:788 JLINK_Reset() -- CPU is running -- CPU_WriteMem(4 bytes @ 0xE000EDF0) -- CPU is running -- CPU_WriteMem(4 bytes @ 0xE000EDFC) >0x35 TIF> -- CPU is running -- CPU_WriteMem(4 bytes @ 0xE000ED0C) -- CPU is running -- CPU_ReadMem(4 bytes @ 0xE000EDF0) -- CPU is running -- CPU_ReadMem(4 bytes @ 0xE000EDF0) -- CPU is running -- CPU_WriteMem(4 bytes @ 0xE000EDF0) -- CPU is running -- CPU_WriteMem(4 bytes @ 0xE000EDFC) -- CPU is running -- CPU_ReadMem(4 bytes @ 0xE000EDF0)
 -- CPU_WriteMem(4 bytes @ 0xE0002000) -- CPU_ReadMem(4 bytes @ 0xE000EDFC) -- CPU_ReadMem(4 bytes @ 0xE0001000) (0021ms, 0646ms total)
T3B5C 000:809 JLINK_Halt()  returns 0x00 (0000ms, 0646ms total)
T3B5C 000:809 JLINK_IsHalted()  returns TRUE (0000ms, 0646ms total)
T3B5C 000:809 JLINK_ReadMemU32(0xE000EDF0, 0x0001 Items, ...) -- CPU_ReadMem(4 bytes @ 0xE000EDF0) - Data: 03 00 03 00  returns 0x01 (0001ms, 0647ms total)
T3B5C 000:810 JLINK_WriteU32(0xE000EDF0, 0xA05F0003) -- CPU_WriteMem(4 bytes @ 0xE000EDF0)  returns 0x00 (0001ms, 0648ms total)
T3B5C 000:811 JLINK_WriteU32(0xE000EDFC, 0x01000000) -- CPU_WriteMem(4 bytes @ 0xE000EDFC)  returns 0x00 (0000ms, 0648ms total)
T3B5C 000:826 JLINK_GetHWStatus(...)  returns 0x00 (0000ms, 0648ms total)
T3B5C 000:837 JLINK_GetNumBPUnits(Type = 0xFFFFFF00)  returns 0x06 (0000ms, 0648ms total)
T3B5C 000:837 JLINK_GetNumBPUnits(Type = 0xF0)  returns 0x2000 (0000ms, 0648ms total)
T3B5C 000:837 JLINK_GetNumWPUnits()  returns 0x04 (0000ms, 0648ms total)
T3B5C 000:848 JLINK_GetSpeed()  returns 0x7D0 (0000ms, 0648ms total)
T3B5C 000:854 JLINK_ReadMemU32(0xE000E004, 0x0001 Items, ...) -- CPU_ReadMem(4 bytes @ 0xE000E004) - Data: 01 00 00 00  returns 0x01 (0001ms, 0649ms total)
T3B5C 000:855 JLINK_ReadMemU32(0xE000E004, 0x0001 Items, ...) -- CPU_ReadMem(4 bytes @ 0xE000E004) - Data: 01 00 00 00  returns 0x01 (0000ms, 0649ms total)
T3B5C 000:855 JLINK_WriteMem(0xE0001000, 0x001C Bytes, ...) - Data: 01 00 00 00 00 00 00 00 00 00 00 00 00 00 00 00 ... -- CPU_WriteMem(28 bytes @ 0xE0001000)  returns 0x1C (0002ms, 0651ms total)
T3B5C 000:857 JLINK_ReadMem (0xE0001000, 0x001C Bytes, ...) -- CPU_ReadMem(28 bytes @ 0xE0001000) - Data: 01 00 00 40 00 00 00 00 00 00 00 00 00 00 00 00 ...  returns 0x00 (0001ms, 0652ms total)
T3B5C 000:858 JLINK_Halt()  returns 0x00 (0000ms, 0652ms total)
T3B5C 000:858 JLINK_IsHalted()  returns TRUE (0000ms, 0652ms total)
T3B5C 000:862 JLINK_WriteMem(0x20000000, 0x0164 Bytes, ...) - Data: 00 BE 0A E0 0D 78 2D 06 68 40 08 24 40 00 00 D3 ... -- CPU_WriteMem(356 bytes @ 0x20000000)  returns 0x164 (0005ms, 0657ms total)
T3B5C 000:867 JLINK_WriteReg(R0, 0x08000000)  returns 0x00 (0000ms, 0657ms total)
T3B5C 000:867 JLINK_WriteReg(R1, 0x00B71B00)  returns 0x00 (0000ms, 0657ms total)
T3B5C 000:867 JLINK_WriteReg(R2, 0x00000001)  returns 0x00 (0000ms, 0657ms total)
T3B5C 000:867 JLINK_WriteReg(R3, 0x00000000)  returns 0x00 (0000ms, 0657ms total)
T3B5C 000:867 JLINK_WriteReg(R4, 0x00000000)  returns 0x00 (0000ms, 0657ms total)
T3B5C 000:867 JLINK_WriteReg(R5, 0x00000000)  returns 0x00 (0000ms, 0657ms total)
T3B5C 000:867 JLINK_WriteReg(R6, 0x00000000)  returns 0x00 (0000ms, 0657ms total)
T3B5C 000:867 JLINK_WriteReg(R7, 0x00000000)  returns 0x00 (0000ms, 0657ms total)
T3B5C 000:867 JLINK_WriteReg(R8, 0x00000000)  returns 0x00 (0001ms, 0658ms total)
T3B5C 000:868 JLINK_WriteReg(R9, 0x20000160)  returns 0x00 (0000ms, 0658ms total)
T3B5C 000:868 JLINK_WriteReg(R10, 0x00000000)  returns 0x00 (0000ms, 0658ms total)
T3B5C 000:868 JLINK_WriteReg(R11, 0x00000000)  returns 0x00 (0000ms, 0658ms total)
T3B5C 000:868 JLINK_WriteReg(R12, 0x00000000)  returns 0x00 (0000ms, 0658ms total)
T3B5C 000:868 JLINK_WriteReg(R13 (SP), 0x20000800)  returns 0x00 (0000ms, 0658ms total)
T3B5C 000:868 JLINK_WriteReg(R14, 0x20000001)  returns 0x00 (0000ms, 0658ms total)
T3B5C 000:868 JLINK_WriteReg(R15 (PC), 0x20000038)  returns 0x00 (0000ms, 0658ms total)
T3B5C 000:868 JLINK_WriteReg(XPSR, 0x01000000)  returns 0x00 (0000ms, 0658ms total)
T3B5C 000:868 JLINK_WriteReg(MSP, 0x20000800)  returns 0x00 (0000ms, 0658ms total)
T3B5C 000:868 JLINK_WriteReg(PSP, 0x20000800)  returns 0x00 (0000ms, 0658ms total)
T3B5C 000:868 JLINK_WriteReg(CFBP, 0x00000000)  returns 0x00 (0000ms, 0658ms total)
T3B5C 000:868 JLINK_SetBPEx(Addr = 0x20000000, Type = 0xFFFFFFF2) -- CPU_ReadMem(2 bytes @ 0x20000000)  returns 0x00000001 (0001ms, 0659ms total)
T3B5C 000:869 JLINK_Go() -- CPU_WriteMem(2 bytes @ 0x20000000) -- CPU_WriteMem(4 bytes @ 0xE0002008) -- CPU_WriteMem(4 bytes @ 0xE000200C) -- CPU_WriteMem(4 bytes @ 0xE0002010) -- CPU_WriteMem(4 bytes @ 0xE0002014) -- CPU_WriteMem(4 bytes @ 0xE0002018) -- CPU_WriteMem(4 bytes @ 0xE000201C) -- CPU_WriteMem(4 bytes @ 0xE0001004) (0007ms, 0666ms total)
T3B5C 000:876 JLINK_IsHalted() -- CPU_ReadMem(2 bytes @ 0x20000000)  returns TRUE (0005ms, 0671ms total)
T3B5C 000:881 JLINK_ReadReg(R15 (PC))  returns 0x20000000 (0000ms, 0666ms total)
T3B5C 000:881 JLINK_ClrBPEx(BPHandle = 0x00000001)  returns 0x00 (0000ms, 0666ms total)
T3B5C 000:881 JLINK_ReadReg(R0)  returns 0x00000000 (0000ms, 0666ms total)
T3B5C 000:881 JLINK_WriteReg(R0, 0x08000000)  returns 0x00 (0000ms, 0666ms total)
T3B5C 000:881 JLINK_WriteReg(R1, 0x00B71B00)  returns 0x00 (0000ms, 0666ms total)
T3B5C 000:881 JLINK_WriteReg(R2, 0x00000001)  returns 0x00 (0000ms, 0666ms total)
T3B5C 000:881 JLINK_WriteReg(R3, 0x00000000)  returns 0x00 (0000ms, 0666ms total)
T3B5C 000:881 JLINK_WriteReg(R4, 0x00000000)  returns 0x00 (0000ms, 0666ms total)
T3B5C 000:881 JLINK_WriteReg(R5, 0x00000000)  returns 0x00 (0000ms, 0666ms total)
T3B5C 000:881 JLINK_WriteReg(R6, 0x00000000)  returns 0x00 (0000ms, 0666ms total)
T3B5C 000:881 JLINK_WriteReg(R7, 0x00000000)  returns 0x00 (0000ms, 0666ms total)
T3B5C 000:881 JLINK_WriteReg(R8, 0x00000000)  returns 0x00 (0000ms, 0666ms total)
T3B5C 000:881 JLINK_WriteReg(R9, 0x20000160)  returns 0x00 (0000ms, 0666ms total)
T3B5C 000:881 JLINK_WriteReg(R10, 0x00000000)  returns 0x00 (0000ms, 0666ms total)
T3B5C 000:881 JLINK_WriteReg(R11, 0x00000000)  returns 0x00 (0000ms, 0666ms total)
T3B5C 000:881 JLINK_WriteReg(R12, 0x00000000)  returns 0x00 (0000ms, 0666ms total)
T3B5C 000:881 JLINK_WriteReg(R13 (SP), 0x20000800)  returns 0x00 (0000ms, 0666ms total)
T3B5C 000:881 JLINK_WriteReg(R14, 0x20000001)  returns 0x00 (0000ms, 0666ms total)
T3B5C 000:881 JLINK_WriteReg(R15 (PC), 0x2000007C)  returns 0x00 (0001ms, 0667ms total)
T3B5C 000:882 JLINK_WriteReg(XPSR, 0x01000000)  returns 0x00 (0000ms, 0667ms total)
T3B5C 000:882 JLINK_WriteReg(MSP, 0x20000800)  returns 0x00 (0000ms, 0667ms total)
T3B5C 000:882 JLINK_WriteReg(PSP, 0x20000800)  returns 0x00 (0000ms, 0667ms total)
T3B5C 000:882 JLINK_WriteReg(CFBP, 0x00000000)  returns 0x00 (0000ms, 0667ms total)
T3B5C 000:882 JLINK_SetBPEx(Addr = 0x20000000, Type = 0xFFFFFFF2)  returns 0x00000002 (0000ms, 0667ms total)
T3B5C 000:882 JLINK_Go() (0001ms, 0668ms total)
T3B5C 000:884 JLINK_IsHalted()  returns FALSE (0000ms, 0668ms total)
T3B5C 000:952 JLINK_IsHalted() -- CPU_ReadMem(2 bytes @ 0x20000000)  returns TRUE (0005ms, 0673ms total)
T3B5C 000:957 JLINK_ReadReg(R15 (PC))  returns 0x20000000 (0000ms, 0668ms total)
T3B5C 000:957 JLINK_ClrBPEx(BPHandle = 0x00000002)  returns 0x00 (0000ms, 0668ms total)
T3B5C 000:957 JLINK_ReadReg(R0)  returns 0x00000000 (0000ms, 0668ms total)
T3B5C 001:010 JLINK_WriteReg(R0, 0x00000001)  returns 0x00 (0001ms, 0669ms total)
T3B5C 001:011 JLINK_WriteReg(R1, 0x00B71B00)  returns 0x00 (0000ms, 0669ms total)
T3B5C 001:011 JLINK_WriteReg(R2, 0x00000001)  returns 0x00 (0000ms, 0669ms total)
T3B5C 001:011 JLINK_WriteReg(R3, 0x00000000)  returns 0x00 (0000ms, 0669ms total)
T3B5C 001:011 JLINK_WriteReg(R4, 0x00000000)  returns 0x00 (0000ms, 0669ms total)
T3B5C 001:011 JLINK_WriteReg(R5, 0x00000000)  returns 0x00 (0000ms, 0669ms total)
T3B5C 001:011 JLINK_WriteReg(R6, 0x00000000)  returns 0x00 (0000ms, 0669ms total)
T3B5C 001:011 JLINK_WriteReg(R7, 0x00000000)  returns 0x00 (0000ms, 0669ms total)
T3B5C 001:011 JLINK_WriteReg(R8, 0x00000000)  returns 0x00 (0000ms, 0669ms total)
T3B5C 001:011 JLINK_WriteReg(R9, 0x20000160)  returns 0x00 (0000ms, 0669ms total)
T3B5C 001:011 JLINK_WriteReg(R10, 0x00000000)  returns 0x00 (0000ms, 0669ms total)
T3B5C 001:011 JLINK_WriteReg(R11, 0x00000000)  returns 0x00 (0000ms, 0669ms total)
T3B5C 001:011 JLINK_WriteReg(R12, 0x00000000)  returns 0x00 (0000ms, 0669ms total)
T3B5C 001:011 JLINK_WriteReg(R13 (SP), 0x20000800)  returns 0x00 (0000ms, 0669ms total)
T3B5C 001:011 JLINK_WriteReg(R14, 0x20000001)  returns 0x00 (0000ms, 0669ms total)
T3B5C 001:011 JLINK_WriteReg(R15 (PC), 0x2000006A)  returns 0x00 (0000ms, 0669ms total)
T3B5C 001:011 JLINK_WriteReg(XPSR, 0x01000000)  returns 0x00 (0000ms, 0669ms total)
T3B5C 001:011 JLINK_WriteReg(MSP, 0x20000800)  returns 0x00 (0000ms, 0669ms total)
T3B5C 001:011 JLINK_WriteReg(PSP, 0x20000800)  returns 0x00 (0000ms, 0669ms total)
T3B5C 001:011 JLINK_WriteReg(CFBP, 0x00000000)  returns 0x00 (0000ms, 0669ms total)
T3B5C 001:011 JLINK_SetBPEx(Addr = 0x20000000, Type = 0xFFFFFFF2)  returns 0x00000003 (0000ms, 0669ms total)
T3B5C 001:011 JLINK_Go() (0002ms, 0671ms total)
T3B5C 001:013 JLINK_IsHalted() -- CPU_ReadMem(2 bytes @ 0x20000000)  returns TRUE (0005ms, 0676ms total)
T3B5C 001:018 JLINK_ReadReg(R15 (PC))  returns 0x20000000 (0000ms, 0671ms total)
T3B5C 001:018 JLINK_ClrBPEx(BPHandle = 0x00000003)  returns 0x00 (0000ms, 0671ms total)
T3B5C 001:018 JLINK_ReadReg(R0)  returns 0x00000000 (0000ms, 0671ms total)
T3B5C 001:025 JLINK_WriteMem(0x20000000, 0x0164 Bytes, ...) - Data: 00 BE 0A E0 0D 78 2D 06 68 40 08 24 40 00 00 D3 ... -- CPU_WriteMem(356 bytes @ 0x20000000)  returns 0x164 (0004ms, 0675ms total)
T3B5C 001:029 JLINK_WriteReg(R0, 0x08000000)  returns 0x00 (0000ms, 0675ms total)
T3B5C 001:029 JLINK_WriteReg(R1, 0x00B71B00)  returns 0x00 (0000ms, 0675ms total)
T3B5C 001:029 JLINK_WriteReg(R2, 0x00000002)  returns 0x00 (0000ms, 0675ms total)
T3B5C 001:029 JLINK_WriteReg(R3, 0x00000000)  returns 0x00 (0000ms, 0675ms total)
T3B5C 001:029 JLINK_WriteReg(R4, 0x00000000)  returns 0x00 (0000ms, 0675ms total)
T3B5C 001:029 JLINK_WriteReg(R5, 0x00000000)  returns 0x00 (0000ms, 0675ms total)
T3B5C 001:029 JLINK_WriteReg(R6, 0x00000000)  returns 0x00 (0000ms, 0675ms total)
T3B5C 001:029 JLINK_WriteReg(R7, 0x00000000)  returns 0x00 (0000ms, 0675ms total)
T3B5C 001:029 JLINK_WriteReg(R8, 0x00000000)  returns 0x00 (0000ms, 0675ms total)
T3B5C 001:029 JLINK_WriteReg(R9, 0x20000160)  returns 0x00 (0000ms, 0675ms total)
T3B5C 001:029 JLINK_WriteReg(R10, 0x00000000)  returns 0x00 (0001ms, 0676ms total)
T3B5C 001:030 JLINK_WriteReg(R11, 0x00000000)  returns 0x00 (0000ms, 0676ms total)
T3B5C 001:030 JLINK_WriteReg(R12, 0x00000000)  returns 0x00 (0000ms, 0676ms total)
T3B5C 001:030 JLINK_WriteReg(R13 (SP), 0x20000800)  returns 0x00 (0000ms, 0676ms total)
T3B5C 001:030 JLINK_WriteReg(R14, 0x20000001)  returns 0x00 (0000ms, 0676ms total)
T3B5C 001:030 JLINK_WriteReg(R15 (PC), 0x20000038)  returns 0x00 (0000ms, 0676ms total)
T3B5C 001:030 JLINK_WriteReg(XPSR, 0x01000000)  returns 0x00 (0000ms, 0676ms total)
T3B5C 001:030 JLINK_WriteReg(MSP, 0x20000800)  returns 0x00 (0000ms, 0676ms total)
T3B5C 001:030 JLINK_WriteReg(PSP, 0x20000800)  returns 0x00 (0000ms, 0676ms total)
T3B5C 001:030 JLINK_WriteReg(CFBP, 0x00000000)  returns 0x00 (0000ms, 0676ms total)
T3B5C 001:030 JLINK_SetBPEx(Addr = 0x20000000, Type = 0xFFFFFFF2) -- CPU_ReadMem(2 bytes @ 0x20000000)  returns 0x00000004 (0000ms, 0676ms total)
T3B5C 001:030 JLINK_Go() -- CPU_WriteMem(2 bytes @ 0x20000000) (0003ms, 0679ms total)
T3B5C 001:033 JLINK_IsHalted() -- CPU_ReadMem(2 bytes @ 0x20000000)  returns TRUE (0005ms, 0684ms total)
T3B5C 001:038 JLINK_ReadReg(R15 (PC))  returns 0x20000000 (0000ms, 0679ms total)
T3B5C 001:038 JLINK_ClrBPEx(BPHandle = 0x00000004)  returns 0x00 (0000ms, 0679ms total)
T3B5C 001:038 JLINK_ReadReg(R0)  returns 0x00000000 (0000ms, 0679ms total)
T3B5C 001:038 JLINK_WriteMem(0x20000164, 0x0400 Bytes, ...) - Data: A8 3F 00 20 CD 01 00 08 D5 01 00 08 D7 01 00 08 ... -- CPU_WriteMem(1024 bytes @ 0x20000164)  returns 0x400 (0011ms, 0690ms total)
T3B5C 001:049 JLINK_WriteReg(R0, 0x08000000)  returns 0x00 (0000ms, 0690ms total)
T3B5C 001:049 JLINK_WriteReg(R1, 0x00000400)  returns 0x00 (0000ms, 0690ms total)
T3B5C 001:049 JLINK_WriteReg(R2, 0x20000164)  returns 0x00 (0000ms, 0690ms total)
T3B5C 001:049 JLINK_WriteReg(R3, 0x00000000)  returns 0x00 (0000ms, 0690ms total)
T3B5C 001:049 JLINK_WriteReg(R4, 0x00000000)  returns 0x00 (0000ms, 0690ms total)
T3B5C 001:049 JLINK_WriteReg(R5, 0x00000000)  returns 0x00 (0000ms, 0690ms total)
T3B5C 001:049 JLINK_WriteReg(R6, 0x00000000)  returns 0x00 (0000ms, 0690ms total)
T3B5C 001:049 JLINK_WriteReg(R7, 0x00000000)  returns 0x00 (0000ms, 0690ms total)
T3B5C 001:049 JLINK_WriteReg(R8, 0x00000000)  returns 0x00 (0000ms, 0690ms total)
T3B5C 001:049 JLINK_WriteReg(R9, 0x20000160)  returns 0x00 (0000ms, 0690ms total)
T3B5C 001:049 JLINK_WriteReg(R10, 0x00000000)  returns 0x00 (0000ms, 0690ms total)
T3B5C 001:049 JLINK_WriteReg(R11, 0x00000000)  returns 0x00 (0000ms, 0690ms total)
T3B5C 001:049 JLINK_WriteReg(R12, 0x00000000)  returns 0x00 (0000ms, 0690ms total)
T3B5C 001:049 JLINK_WriteReg(R13 (SP), 0x20000800)  returns 0x00 (0000ms, 0690ms total)
T3B5C 001:049 JLINK_WriteReg(R14, 0x20000001)  returns 0x00 (0000ms, 0690ms total)
T3B5C 001:049 JLINK_WriteReg(R15 (PC), 0x200000F4)  returns 0x00 (0000ms, 0690ms total)
T3B5C 001:049 JLINK_WriteReg(XPSR, 0x01000000)  returns 0x00 (0000ms, 0690ms total)
T3B5C 001:049 JLINK_WriteReg(MSP, 0x20000800)  returns 0x00 (0000ms, 0690ms total)
T3B5C 001:049 JLINK_WriteReg(PSP, 0x20000800)  returns 0x00 (0000ms, 0690ms total)
T3B5C 001:049 JLINK_WriteReg(CFBP, 0x00000000)  returns 0x00 (0000ms, 0690ms total)
T3B5C 001:049 JLINK_SetBPEx(Addr = 0x20000000, Type = 0xFFFFFFF2)  returns 0x00000005 (0000ms, 0690ms total)
T3B5C 001:049 JLINK_Go() (0003ms, 0693ms total)
T3B5C 001:052 JLINK_IsHalted()  returns FALSE (0000ms, 0693ms total)
T3B5C 001:067 JLINK_IsHalted()  returns FALSE (0000ms, 0693ms total)
T3B5C 001:069 JLINK_IsHalted()  returns FALSE (0000ms, 0693ms total)
T3B5C 001:071 JLINK_IsHalted()  returns FALSE (0000ms, 0693ms total)
T3B5C 001:073 JLINK_IsHalted()  returns FALSE (0000ms, 0693ms total)
T3B5C 001:075 JLINK_IsHalted()  returns FALSE (0000ms, 0693ms total)
T3B5C 001:077 JLINK_IsHalted()  returns FALSE (0000ms, 0693ms total)
T3B5C 001:079 JLINK_IsHalted()  returns FALSE (0000ms, 0693ms total)
T3B5C 001:081 JLINK_IsHalted()  returns FALSE (0000ms, 0693ms total)
T3B5C 001:083 JLINK_IsHalted() -- CPU_ReadMem(2 bytes @ 0x20000000)  returns TRUE (0005ms, 0698ms total)
T3B5C 001:088 JLINK_ReadReg(R15 (PC))  returns 0x20000000 (0000ms, 0693ms total)
T3B5C 001:088 JLINK_ClrBPEx(BPHandle = 0x00000005)  returns 0x00 (0000ms, 0693ms total)
T3B5C 001:088 JLINK_ReadReg(R0)  returns 0x00000000 (0000ms, 0693ms total)
T3B5C 001:088 JLINK_WriteMem(0x20000164, 0x0400 Bytes, ...) - Data: 07 F0 6D FE 00 28 F9 D0 00 20 5A 49 08 60 08 F0 ... -- CPU_WriteMem(1024 bytes @ 0x20000164)  returns 0x400 (0011ms, 0704ms total)
T3B5C 001:099 JLINK_WriteReg(R0, 0x08000400)  returns 0x00 (0000ms, 0704ms total)
T3B5C 001:099 JLINK_WriteReg(R1, 0x00000400)  returns 0x00 (0000ms, 0704ms total)
T3B5C 001:099 JLINK_WriteReg(R2, 0x20000164)  returns 0x00 (0000ms, 0704ms total)
T3B5C 001:099 JLINK_WriteReg(R3, 0x00000000)  returns 0x00 (0000ms, 0704ms total)
T3B5C 001:099 JLINK_WriteReg(R4, 0x00000000)  returns 0x00 (0000ms, 0704ms total)
T3B5C 001:099 JLINK_WriteReg(R5, 0x00000000)  returns 0x00 (0000ms, 0704ms total)
T3B5C 001:099 JLINK_WriteReg(R6, 0x00000000)  returns 0x00 (0000ms, 0704ms total)
T3B5C 001:099 JLINK_WriteReg(R7, 0x00000000)  returns 0x00 (0000ms, 0704ms total)
T3B5C 001:099 JLINK_WriteReg(R8, 0x00000000)  returns 0x00 (0000ms, 0704ms total)
T3B5C 001:099 JLINK_WriteReg(R9, 0x20000160)  returns 0x00 (0000ms, 0704ms total)
T3B5C 001:099 JLINK_WriteReg(R10, 0x00000000)  returns 0x00 (0000ms, 0704ms total)
T3B5C 001:099 JLINK_WriteReg(R11, 0x00000000)  returns 0x00 (0000ms, 0704ms total)
T3B5C 001:099 JLINK_WriteReg(R12, 0x00000000)  returns 0x00 (0000ms, 0704ms total)
T3B5C 001:099 JLINK_WriteReg(R13 (SP), 0x20000800)  returns 0x00 (0000ms, 0704ms total)
T3B5C 001:099 JLINK_WriteReg(R14, 0x20000001)  returns 0x00 (0000ms, 0704ms total)
T3B5C 001:099 JLINK_WriteReg(R15 (PC), 0x200000F4)  returns 0x00 (0000ms, 0704ms total)
T3B5C 001:099 JLINK_WriteReg(XPSR, 0x01000000)  returns 0x00 (0000ms, 0704ms total)
T3B5C 001:099 JLINK_WriteReg(MSP, 0x20000800)  returns 0x00 (0000ms, 0704ms total)
T3B5C 001:099 JLINK_WriteReg(PSP, 0x20000800)  returns 0x00 (0000ms, 0704ms total)
T3B5C 001:099 JLINK_WriteReg(CFBP, 0x00000000)  returns 0x00 (0000ms, 0704ms total)
T3B5C 001:099 JLINK_SetBPEx(Addr = 0x20000000, Type = 0xFFFFFFF2)  returns 0x00000006 (0000ms, 0704ms total)
T3B5C 001:099 JLINK_Go() (0003ms, 0707ms total)
T3B5C 001:102 JLINK_IsHalted()  returns FALSE (0000ms, 0707ms total)
T3B5C 001:107 JLINK_IsHalted()  returns FALSE (0000ms, 0707ms total)
T3B5C 001:109 JLINK_IsHalted()  returns FALSE (0000ms, 0707ms total)
T3B5C 001:111 JLINK_IsHalted()  returns FALSE (0000ms, 0707ms total)
T3B5C 001:113 JLINK_IsHalted()  returns FALSE (0000ms, 0707ms total)
T3B5C 001:115 JLINK_IsHalted()  returns FALSE (0000ms, 0707ms total)
T3B5C 001:117 JLINK_IsHalted()  returns FALSE (0000ms, 0707ms total)
T3B5C 001:119 JLINK_IsHalted()  returns FALSE (0000ms, 0707ms total)
T3B5C 001:121 JLINK_IsHalted()  returns FALSE (0000ms, 0707ms total)
T3B5C 001:123 JLINK_IsHalted()  returns FALSE (0000ms, 0707ms total)
T3B5C 001:125 JLINK_IsHalted()  returns FALSE (0000ms, 0707ms total)
T3B5C 001:127 JLINK_IsHalted()  returns FALSE (0000ms, 0707ms total)
T3B5C 001:129 JLINK_IsHalted()  returns FALSE (0000ms, 0707ms total)
T3B5C 001:131 JLINK_IsHalted()  returns FALSE (0000ms, 0707ms total)
T3B5C 001:133 JLINK_IsHalted() -- CPU_ReadMem(2 bytes @ 0x20000000)  returns TRUE (0005ms, 0712ms total)
T3B5C 001:138 JLINK_ReadReg(R15 (PC))  returns 0x20000000 (0000ms, 0707ms total)
T3B5C 001:138 JLINK_ClrBPEx(BPHandle = 0x00000006)  returns 0x00 (0000ms, 0707ms total)
T3B5C 001:138 JLINK_ReadReg(R0)  returns 0x00000000 (0000ms, 0707ms total)
T3B5C 001:138 JLINK_WriteMem(0x20000164, 0x0400 Bytes, ...) - Data: 03 DD FF F7 D6 FF 01 20 10 BD FF F7 9D FF 40 21 ... -- CPU_WriteMem(1024 bytes @ 0x20000164)  returns 0x400 (0011ms, 0718ms total)
T3B5C 001:149 JLINK_WriteReg(R0, 0x08000800)  returns 0x00 (0000ms, 0718ms total)
T3B5C 001:149 JLINK_WriteReg(R1, 0x00000400)  returns 0x00 (0000ms, 0718ms total)
T3B5C 001:149 JLINK_WriteReg(R2, 0x20000164)  returns 0x00 (0000ms, 0718ms total)
T3B5C 001:149 JLINK_WriteReg(R3, 0x00000000)  returns 0x00 (0000ms, 0718ms total)
T3B5C 001:149 JLINK_WriteReg(R4, 0x00000000)  returns 0x00 (0000ms, 0718ms total)
T3B5C 001:149 JLINK_WriteReg(R5, 0x00000000)  returns 0x00 (0000ms, 0718ms total)
T3B5C 001:149 JLINK_WriteReg(R6, 0x00000000)  returns 0x00 (0000ms, 0718ms total)
T3B5C 001:149 JLINK_WriteReg(R7, 0x00000000)  returns 0x00 (0000ms, 0718ms total)
T3B5C 001:149 JLINK_WriteReg(R8, 0x00000000)  returns 0x00 (0000ms, 0718ms total)
T3B5C 001:149 JLINK_WriteReg(R9, 0x20000160)  returns 0x00 (0000ms, 0718ms total)
T3B5C 001:149 JLINK_WriteReg(R10, 0x00000000)  returns 0x00 (0000ms, 0718ms total)
T3B5C 001:149 JLINK_WriteReg(R11, 0x00000000)  returns 0x00 (0000ms, 0718ms total)
T3B5C 001:149 JLINK_WriteReg(R12, 0x00000000)  returns 0x00 (0000ms, 0718ms total)
T3B5C 001:149 JLINK_WriteReg(R13 (SP), 0x20000800)  returns 0x00 (0000ms, 0718ms total)
T3B5C 001:149 JLINK_WriteReg(R14, 0x20000001)  returns 0x00 (0000ms, 0718ms total)
T3B5C 001:149 JLINK_WriteReg(R15 (PC), 0x200000F4)  returns 0x00 (0000ms, 0718ms total)
T3B5C 001:149 JLINK_WriteReg(XPSR, 0x01000000)  returns 0x00 (0000ms, 0718ms total)
T3B5C 001:149 JLINK_WriteReg(MSP, 0x20000800)  returns 0x00 (0000ms, 0718ms total)
T3B5C 001:149 JLINK_WriteReg(PSP, 0x20000800)  returns 0x00 (0000ms, 0718ms total)
T3B5C 001:149 JLINK_WriteReg(CFBP, 0x00000000)  returns 0x00 (0000ms, 0718ms total)
T3B5C 001:149 JLINK_SetBPEx(Addr = 0x20000000, Type = 0xFFFFFFF2)  returns 0x00000007 (0000ms, 0718ms total)
T3B5C 001:149 JLINK_Go() (0003ms, 0721ms total)
T3B5C 001:152 JLINK_IsHalted()  returns FALSE (0000ms, 0721ms total)
T3B5C 001:154 JLINK_IsHalted()  returns FALSE (0000ms, 0721ms total)
T3B5C 001:156 JLINK_IsHalted()  returns FALSE (0000ms, 0721ms total)
T3B5C 001:158 JLINK_IsHalted()  returns FALSE (0000ms, 0721ms total)
T3B5C 001:160 JLINK_IsHalted()  returns FALSE (0000ms, 0721ms total)
T3B5C 001:162 JLINK_IsHalted()  returns FALSE (0000ms, 0721ms total)
T3B5C 001:164 JLINK_IsHalted()  returns FALSE (0000ms, 0721ms total)
T3B5C 001:166 JLINK_IsHalted()  returns FALSE (0000ms, 0721ms total)
T3B5C 001:168 JLINK_IsHalted()  returns FALSE (0000ms, 0721ms total)
T3B5C 001:170 JLINK_IsHalted()  returns FALSE (0000ms, 0721ms total)
T3B5C 001:172 JLINK_IsHalted()  returns FALSE (0000ms, 0721ms total)
T3B5C 001:174 JLINK_IsHalted()  returns FALSE (0000ms, 0721ms total)
T3B5C 001:176 JLINK_IsHalted()  returns FALSE (0000ms, 0721ms total)
T3B5C 001:178 JLINK_IsHalted()  returns FALSE (0000ms, 0721ms total)
T3B5C 001:180 JLINK_IsHalted()  returns FALSE (0000ms, 0721ms total)
T3B5C 001:182 JLINK_IsHalted() -- CPU_ReadMem(2 bytes @ 0x20000000)  returns TRUE (0005ms, 0726ms total)
T3B5C 001:187 JLINK_ReadReg(R15 (PC))  returns 0x20000000 (0000ms, 0721ms total)
T3B5C 001:187 JLINK_ClrBPEx(BPHandle = 0x00000007)  returns 0x00 (0000ms, 0721ms total)
T3B5C 001:187 JLINK_ReadReg(R0)  returns 0x00000000 (0000ms, 0721ms total)
T3B5C 001:189 JLINK_WriteMem(0x20000164, 0x0400 Bytes, ...) - Data: 40 F2 BD 12 0C 21 00 90 10 1F 08 F0 56 FA F8 E0 ... -- CPU_WriteMem(1024 bytes @ 0x20000164)  returns 0x400 (0010ms, 0731ms total)
T3B5C 001:199 JLINK_WriteReg(R0, 0x08000C00)  returns 0x00 (0000ms, 0731ms total)
T3B5C 001:199 JLINK_WriteReg(R1, 0x00000400)  returns 0x00 (0000ms, 0731ms total)
T3B5C 001:199 JLINK_WriteReg(R2, 0x20000164)  returns 0x00 (0000ms, 0731ms total)
T3B5C 001:199 JLINK_WriteReg(R3, 0x00000000)  returns 0x00 (0000ms, 0731ms total)
T3B5C 001:199 JLINK_WriteReg(R4, 0x00000000)  returns 0x00 (0000ms, 0731ms total)
T3B5C 001:199 JLINK_WriteReg(R5, 0x00000000)  returns 0x00 (0000ms, 0731ms total)
T3B5C 001:199 JLINK_WriteReg(R6, 0x00000000)  returns 0x00 (0000ms, 0731ms total)
T3B5C 001:199 JLINK_WriteReg(R7, 0x00000000)  returns 0x00 (0000ms, 0731ms total)
T3B5C 001:199 JLINK_WriteReg(R8, 0x00000000)  returns 0x00 (0000ms, 0731ms total)
T3B5C 001:199 JLINK_WriteReg(R9, 0x20000160)  returns 0x00 (0000ms, 0731ms total)
T3B5C 001:199 JLINK_WriteReg(R10, 0x00000000)  returns 0x00 (0001ms, 0732ms total)
T3B5C 001:200 JLINK_WriteReg(R11, 0x00000000)  returns 0x00 (0000ms, 0732ms total)
T3B5C 001:200 JLINK_WriteReg(R12, 0x00000000)  returns 0x00 (0000ms, 0732ms total)
T3B5C 001:200 JLINK_WriteReg(R13 (SP), 0x20000800)  returns 0x00 (0000ms, 0732ms total)
T3B5C 001:200 JLINK_WriteReg(R14, 0x20000001)  returns 0x00 (0000ms, 0732ms total)
T3B5C 001:200 JLINK_WriteReg(R15 (PC), 0x200000F4)  returns 0x00 (0000ms, 0732ms total)
T3B5C 001:200 JLINK_WriteReg(XPSR, 0x01000000)  returns 0x00 (0000ms, 0732ms total)
T3B5C 001:200 JLINK_WriteReg(MSP, 0x20000800)  returns 0x00 (0000ms, 0732ms total)
T3B5C 001:200 JLINK_WriteReg(PSP, 0x20000800)  returns 0x00 (0000ms, 0732ms total)
T3B5C 001:200 JLINK_WriteReg(CFBP, 0x00000000)  returns 0x00 (0000ms, 0732ms total)
T3B5C 001:200 JLINK_SetBPEx(Addr = 0x20000000, Type = 0xFFFFFFF2)  returns 0x00000008 (0000ms, 0732ms total)
T3B5C 001:200 JLINK_Go() (0002ms, 0734ms total)
T3B5C 001:202 JLINK_IsHalted()  returns FALSE (0001ms, 0735ms total)
T3B5C 001:207 JLINK_IsHalted()  returns FALSE (0000ms, 0734ms total)
T3B5C 001:209 JLINK_IsHalted()  returns FALSE (0000ms, 0734ms total)
T3B5C 001:211 JLINK_IsHalted()  returns FALSE (0000ms, 0734ms total)
T3B5C 001:213 JLINK_IsHalted()  returns FALSE (0000ms, 0734ms total)
T3B5C 001:215 JLINK_IsHalted()  returns FALSE (0000ms, 0734ms total)
T3B5C 001:217 JLINK_IsHalted()  returns FALSE (0000ms, 0734ms total)
T3B5C 001:223 JLINK_IsHalted()  returns FALSE (0000ms, 0734ms total)
T3B5C 001:225 JLINK_IsHalted()  returns FALSE (0000ms, 0734ms total)
T3B5C 001:227 JLINK_IsHalted()  returns FALSE (0000ms, 0734ms total)
T3B5C 001:229 JLINK_IsHalted()  returns FALSE (0000ms, 0734ms total)
T3B5C 001:231 JLINK_IsHalted()  returns FALSE (0000ms, 0734ms total)
T3B5C 001:233 JLINK_IsHalted() -- CPU_ReadMem(2 bytes @ 0x20000000)  returns TRUE (0005ms, 0739ms total)
T3B5C 001:238 JLINK_ReadReg(R15 (PC))  returns 0x20000000 (0000ms, 0734ms total)
T3B5C 001:238 JLINK_ClrBPEx(BPHandle = 0x00000008)  returns 0x00 (0000ms, 0734ms total)
T3B5C 001:238 JLINK_ReadReg(R0)  returns 0x00000000 (0000ms, 0734ms total)
T3B5C 001:240 JLINK_WriteMem(0x20000164, 0x0400 Bytes, ...) - Data: 08 D0 91 4B 98 42 05 D0 90 4B 98 42 02 D0 90 4B ... -- CPU_WriteMem(1024 bytes @ 0x20000164)  returns 0x400 (0010ms, 0744ms total)
T3B5C 001:250 JLINK_WriteReg(R0, 0x08001000)  returns 0x00 (0000ms, 0744ms total)
T3B5C 001:250 JLINK_WriteReg(R1, 0x00000400)  returns 0x00 (0000ms, 0744ms total)
T3B5C 001:250 JLINK_WriteReg(R2, 0x20000164)  returns 0x00 (0000ms, 0744ms total)
T3B5C 001:250 JLINK_WriteReg(R3, 0x00000000)  returns 0x00 (0000ms, 0744ms total)
T3B5C 001:250 JLINK_WriteReg(R4, 0x00000000)  returns 0x00 (0000ms, 0744ms total)
T3B5C 001:250 JLINK_WriteReg(R5, 0x00000000)  returns 0x00 (0000ms, 0744ms total)
T3B5C 001:250 JLINK_WriteReg(R6, 0x00000000)  returns 0x00 (0000ms, 0744ms total)
T3B5C 001:250 JLINK_WriteReg(R7, 0x00000000)  returns 0x00 (0000ms, 0744ms total)
T3B5C 001:250 JLINK_WriteReg(R8, 0x00000000)  returns 0x00 (0000ms, 0744ms total)
T3B5C 001:250 JLINK_WriteReg(R9, 0x20000160)  returns 0x00 (0000ms, 0744ms total)
T3B5C 001:250 JLINK_WriteReg(R10, 0x00000000)  returns 0x00 (0000ms, 0744ms total)
T3B5C 001:250 JLINK_WriteReg(R11, 0x00000000)  returns 0x00 (0001ms, 0745ms total)
T3B5C 001:251 JLINK_WriteReg(R12, 0x00000000)  returns 0x00 (0000ms, 0745ms total)
T3B5C 001:251 JLINK_WriteReg(R13 (SP), 0x20000800)  returns 0x00 (0000ms, 0745ms total)
T3B5C 001:251 JLINK_WriteReg(R14, 0x20000001)  returns 0x00 (0000ms, 0745ms total)
T3B5C 001:251 JLINK_WriteReg(R15 (PC), 0x200000F4)  returns 0x00 (0000ms, 0745ms total)
T3B5C 001:251 JLINK_WriteReg(XPSR, 0x01000000)  returns 0x00 (0000ms, 0745ms total)
T3B5C 001:251 JLINK_WriteReg(MSP, 0x20000800)  returns 0x00 (0000ms, 0745ms total)
T3B5C 001:251 JLINK_WriteReg(PSP, 0x20000800)  returns 0x00 (0000ms, 0745ms total)
T3B5C 001:251 JLINK_WriteReg(CFBP, 0x00000000)  returns 0x00 (0000ms, 0745ms total)
T3B5C 001:251 JLINK_SetBPEx(Addr = 0x20000000, Type = 0xFFFFFFF2)  returns 0x00000009 (0000ms, 0745ms total)
T3B5C 001:251 JLINK_Go() (0002ms, 0747ms total)
T3B5C 001:253 JLINK_IsHalted()  returns FALSE (0001ms, 0748ms total)
T3B5C 001:256 JLINK_IsHalted()  returns FALSE (0000ms, 0747ms total)
T3B5C 001:258 JLINK_IsHalted()  returns FALSE (0000ms, 0747ms total)
T3B5C 001:260 JLINK_IsHalted()  returns FALSE (0000ms, 0747ms total)
T3B5C 001:262 JLINK_IsHalted()  returns FALSE (0000ms, 0747ms total)
T3B5C 001:264 JLINK_IsHalted()  returns FALSE (0000ms, 0747ms total)
T3B5C 001:266 JLINK_IsHalted()  returns FALSE (0000ms, 0747ms total)
T3B5C 001:268 JLINK_IsHalted()  returns FALSE (0000ms, 0747ms total)
T3B5C 001:270 JLINK_IsHalted()  returns FALSE (0000ms, 0747ms total)
T3B5C 001:272 JLINK_IsHalted()  returns FALSE (0000ms, 0747ms total)
T3B5C 001:274 JLINK_IsHalted()  returns FALSE (0000ms, 0747ms total)
T3B5C 001:276 JLINK_IsHalted()  returns FALSE (0000ms, 0747ms total)
T3B5C 001:278 JLINK_IsHalted()  returns FALSE (0000ms, 0747ms total)
T3B5C 001:280 JLINK_IsHalted()  returns FALSE (0000ms, 0747ms total)
T3B5C 001:282 JLINK_IsHalted()  returns FALSE (0000ms, 0747ms total)
T3B5C 001:284 JLINK_IsHalted() -- CPU_ReadMem(2 bytes @ 0x20000000)  returns TRUE (0004ms, 0751ms total)
T3B5C 001:288 JLINK_ReadReg(R15 (PC))  returns 0x20000000 (0001ms, 0748ms total)
T3B5C 001:289 JLINK_ClrBPEx(BPHandle = 0x00000009)  returns 0x00 (0000ms, 0748ms total)
T3B5C 001:289 JLINK_ReadReg(R0)  returns 0x00000000 (0000ms, 0748ms total)
T3B5C 001:289 JLINK_WriteMem(0x20000164, 0x0400 Bytes, ...) - Data: 02 83 02 8B 4F F6 FF 73 03 EA 01 23 1A 43 02 83 ... -- CPU_WriteMem(1024 bytes @ 0x20000164)  returns 0x400 (0011ms, 0759ms total)
T3B5C 001:300 JLINK_WriteReg(R0, 0x08001400)  returns 0x00 (0000ms, 0759ms total)
T3B5C 001:300 JLINK_WriteReg(R1, 0x00000400)  returns 0x00 (0000ms, 0759ms total)
T3B5C 001:300 JLINK_WriteReg(R2, 0x20000164)  returns 0x00 (0000ms, 0759ms total)
T3B5C 001:300 JLINK_WriteReg(R3, 0x00000000)  returns 0x00 (0000ms, 0759ms total)
T3B5C 001:300 JLINK_WriteReg(R4, 0x00000000)  returns 0x00 (0000ms, 0759ms total)
T3B5C 001:300 JLINK_WriteReg(R5, 0x00000000)  returns 0x00 (0000ms, 0759ms total)
T3B5C 001:300 JLINK_WriteReg(R6, 0x00000000)  returns 0x00 (0000ms, 0759ms total)
T3B5C 001:300 JLINK_WriteReg(R7, 0x00000000)  returns 0x00 (0000ms, 0759ms total)
T3B5C 001:300 JLINK_WriteReg(R8, 0x00000000)  returns 0x00 (0000ms, 0759ms total)
T3B5C 001:300 JLINK_WriteReg(R9, 0x20000160)  returns 0x00 (0000ms, 0759ms total)
T3B5C 001:300 JLINK_WriteReg(R10, 0x00000000)  returns 0x00 (0000ms, 0759ms total)
T3B5C 001:300 JLINK_WriteReg(R11, 0x00000000)  returns 0x00 (0000ms, 0759ms total)
T3B5C 001:300 JLINK_WriteReg(R12, 0x00000000)  returns 0x00 (0000ms, 0759ms total)
T3B5C 001:300 JLINK_WriteReg(R13 (SP), 0x20000800)  returns 0x00 (0000ms, 0759ms total)
T3B5C 001:300 JLINK_WriteReg(R14, 0x20000001)  returns 0x00 (0000ms, 0759ms total)
T3B5C 001:300 JLINK_WriteReg(R15 (PC), 0x200000F4)  returns 0x00 (0000ms, 0759ms total)
T3B5C 001:300 JLINK_WriteReg(XPSR, 0x01000000)  returns 0x00 (0000ms, 0759ms total)
T3B5C 001:300 JLINK_WriteReg(MSP, 0x20000800)  returns 0x00 (0000ms, 0759ms total)
T3B5C 001:300 JLINK_WriteReg(PSP, 0x20000800)  returns 0x00 (0000ms, 0759ms total)
T3B5C 001:300 JLINK_WriteReg(CFBP, 0x00000000)  returns 0x00 (0000ms, 0759ms total)
T3B5C 001:300 JLINK_SetBPEx(Addr = 0x20000000, Type = 0xFFFFFFF2)  returns 0x0000000A (0000ms, 0759ms total)
T3B5C 001:300 JLINK_Go() (0003ms, 0762ms total)
T3B5C 001:303 JLINK_IsHalted()  returns FALSE (0000ms, 0762ms total)
T3B5C 001:305 JLINK_IsHalted()  returns FALSE (0000ms, 0762ms total)
T3B5C 001:307 JLINK_IsHalted()  returns FALSE (0000ms, 0762ms total)
T3B5C 001:309 JLINK_IsHalted()  returns FALSE (0000ms, 0762ms total)
T3B5C 001:317 JLINK_IsHalted()  returns FALSE (0000ms, 0762ms total)
T3B5C 001:319 JLINK_IsHalted()  returns FALSE (0000ms, 0762ms total)
T3B5C 001:321 JLINK_IsHalted()  returns FALSE (0000ms, 0762ms total)
T3B5C 001:323 JLINK_IsHalted()  returns FALSE (0000ms, 0762ms total)
T3B5C 001:325 JLINK_IsHalted()  returns FALSE (0000ms, 0762ms total)
T3B5C 001:327 JLINK_IsHalted()  returns FALSE (0000ms, 0762ms total)
T3B5C 001:329 JLINK_IsHalted()  returns FALSE (0000ms, 0762ms total)
T3B5C 001:331 JLINK_IsHalted()  returns FALSE (0000ms, 0762ms total)
T3B5C 001:333 JLINK_IsHalted()  returns FALSE (0000ms, 0762ms total)
T3B5C 001:335 JLINK_IsHalted() -- CPU_ReadMem(2 bytes @ 0x20000000)  returns TRUE (0005ms, 0767ms total)
T3B5C 001:340 JLINK_ReadReg(R15 (PC))  returns 0x20000000 (0000ms, 0762ms total)
T3B5C 001:340 JLINK_ClrBPEx(BPHandle = 0x0000000A)  returns 0x00 (0000ms, 0762ms total)
T3B5C 001:340 JLINK_ReadReg(R0)  returns 0x00000000 (0000ms, 0762ms total)
T3B5C 001:340 JLINK_WriteMem(0x20000164, 0x0400 Bytes, ...) - Data: 8F 73 19 40 11 43 01 80 70 47 F0 B5 0C 46 15 46 ... -- CPU_WriteMem(1024 bytes @ 0x20000164)  returns 0x400 (0011ms, 0773ms total)
T3B5C 001:351 JLINK_WriteReg(R0, 0x08001800)  returns 0x00 (0000ms, 0773ms total)
T3B5C 001:351 JLINK_WriteReg(R1, 0x00000400)  returns 0x00 (0000ms, 0773ms total)
T3B5C 001:351 JLINK_WriteReg(R2, 0x20000164)  returns 0x00 (0000ms, 0773ms total)
T3B5C 001:351 JLINK_WriteReg(R3, 0x00000000)  returns 0x00 (0000ms, 0773ms total)
T3B5C 001:351 JLINK_WriteReg(R4, 0x00000000)  returns 0x00 (0000ms, 0773ms total)
T3B5C 001:351 JLINK_WriteReg(R5, 0x00000000)  returns 0x00 (0000ms, 0773ms total)
T3B5C 001:351 JLINK_WriteReg(R6, 0x00000000)  returns 0x00 (0000ms, 0773ms total)
T3B5C 001:351 JLINK_WriteReg(R7, 0x00000000)  returns 0x00 (0000ms, 0773ms total)
T3B5C 001:351 JLINK_WriteReg(R8, 0x00000000)  returns 0x00 (0000ms, 0773ms total)
T3B5C 001:351 JLINK_WriteReg(R9, 0x20000160)  returns 0x00 (0000ms, 0773ms total)
T3B5C 001:351 JLINK_WriteReg(R10, 0x00000000)  returns 0x00 (0000ms, 0773ms total)
T3B5C 001:351 JLINK_WriteReg(R11, 0x00000000)  returns 0x00 (0000ms, 0773ms total)
T3B5C 001:351 JLINK_WriteReg(R12, 0x00000000)  returns 0x00 (0000ms, 0773ms total)
T3B5C 001:351 JLINK_WriteReg(R13 (SP), 0x20000800)  returns 0x00 (0000ms, 0773ms total)
T3B5C 001:351 JLINK_WriteReg(R14, 0x20000001)  returns 0x00 (0000ms, 0773ms total)
T3B5C 001:351 JLINK_WriteReg(R15 (PC), 0x200000F4)  returns 0x00 (0000ms, 0773ms total)
T3B5C 001:351 JLINK_WriteReg(XPSR, 0x01000000)  returns 0x00 (0000ms, 0773ms total)
T3B5C 001:351 JLINK_WriteReg(MSP, 0x20000800)  returns 0x00 (0000ms, 0773ms total)
T3B5C 001:351 JLINK_WriteReg(PSP, 0x20000800)  returns 0x00 (0000ms, 0773ms total)
T3B5C 001:351 JLINK_WriteReg(CFBP, 0x00000000)  returns 0x00 (0000ms, 0773ms total)
T3B5C 001:351 JLINK_SetBPEx(Addr = 0x20000000, Type = 0xFFFFFFF2)  returns 0x0000000B (0000ms, 0773ms total)
T3B5C 001:351 JLINK_Go() (0003ms, 0776ms total)
T3B5C 001:354 JLINK_IsHalted()  returns FALSE (0000ms, 0776ms total)
T3B5C 001:356 JLINK_IsHalted()  returns FALSE (0000ms, 0776ms total)
T3B5C 001:358 JLINK_IsHalted()  returns FALSE (0000ms, 0776ms total)
T3B5C 001:360 JLINK_IsHalted()  returns FALSE (0000ms, 0776ms total)
T3B5C 001:362 JLINK_IsHalted()  returns FALSE (0000ms, 0776ms total)
T3B5C 001:364 JLINK_IsHalted()  returns FALSE (0000ms, 0776ms total)
T3B5C 001:366 JLINK_IsHalted()  returns FALSE (0000ms, 0776ms total)
T3B5C 001:368 JLINK_IsHalted()  returns FALSE (0000ms, 0776ms total)
T3B5C 001:370 JLINK_IsHalted()  returns FALSE (0000ms, 0776ms total)
T3B5C 001:372 JLINK_IsHalted()  returns FALSE (0000ms, 0776ms total)
T3B5C 001:374 JLINK_IsHalted()  returns FALSE (0000ms, 0776ms total)
T3B5C 001:376 JLINK_IsHalted()  returns FALSE (0000ms, 0776ms total)
T3B5C 001:378 JLINK_IsHalted()  returns FALSE (0000ms, 0776ms total)
T3B5C 001:380 JLINK_IsHalted()  returns FALSE (0000ms, 0776ms total)
T3B5C 001:382 JLINK_IsHalted()  returns FALSE (0000ms, 0776ms total)
T3B5C 001:384 JLINK_IsHalted()  returns FALSE (0000ms, 0776ms total)
T3B5C 001:386 JLINK_IsHalted() -- CPU_ReadMem(2 bytes @ 0x20000000)  returns TRUE (0005ms, 0781ms total)
T3B5C 001:391 JLINK_ReadReg(R15 (PC))  returns 0x20000000 (0000ms, 0776ms total)
T3B5C 001:391 JLINK_ClrBPEx(BPHandle = 0x0000000B)  returns 0x00 (0000ms, 0776ms total)
T3B5C 001:391 JLINK_ReadReg(R0)  returns 0x00000000 (0000ms, 0776ms total)
T3B5C 001:391 JLINK_WriteMem(0x20000164, 0x0400 Bytes, ...) - Data: 08 8F 70 47 01 46 88 8F 70 47 01 46 B1 F8 40 00 ... -- CPU_WriteMem(1024 bytes @ 0x20000164)  returns 0x400 (0011ms, 0787ms total)
T3B5C 001:402 JLINK_WriteReg(R0, 0x08001C00)  returns 0x00 (0000ms, 0787ms total)
T3B5C 001:402 JLINK_WriteReg(R1, 0x00000400)  returns 0x00 (0000ms, 0787ms total)
T3B5C 001:402 JLINK_WriteReg(R2, 0x20000164)  returns 0x00 (0000ms, 0787ms total)
T3B5C 001:402 JLINK_WriteReg(R3, 0x00000000)  returns 0x00 (0000ms, 0787ms total)
T3B5C 001:402 JLINK_WriteReg(R4, 0x00000000)  returns 0x00 (0000ms, 0787ms total)
T3B5C 001:402 JLINK_WriteReg(R5, 0x00000000)  returns 0x00 (0000ms, 0787ms total)
T3B5C 001:402 JLINK_WriteReg(R6, 0x00000000)  returns 0x00 (0000ms, 0787ms total)
T3B5C 001:402 JLINK_WriteReg(R7, 0x00000000)  returns 0x00 (0000ms, 0787ms total)
T3B5C 001:402 JLINK_WriteReg(R8, 0x00000000)  returns 0x00 (0000ms, 0787ms total)
T3B5C 001:402 JLINK_WriteReg(R9, 0x20000160)  returns 0x00 (0000ms, 0787ms total)
T3B5C 001:402 JLINK_WriteReg(R10, 0x00000000)  returns 0x00 (0000ms, 0787ms total)
T3B5C 001:402 JLINK_WriteReg(R11, 0x00000000)  returns 0x00 (0000ms, 0787ms total)
T3B5C 001:402 JLINK_WriteReg(R12, 0x00000000)  returns 0x00 (0000ms, 0787ms total)
T3B5C 001:402 JLINK_WriteReg(R13 (SP), 0x20000800)  returns 0x00 (0000ms, 0787ms total)
T3B5C 001:402 JLINK_WriteReg(R14, 0x20000001)  returns 0x00 (0000ms, 0787ms total)
T3B5C 001:402 JLINK_WriteReg(R15 (PC), 0x200000F4)  returns 0x00 (0000ms, 0787ms total)
T3B5C 001:402 JLINK_WriteReg(XPSR, 0x01000000)  returns 0x00 (0000ms, 0787ms total)
T3B5C 001:402 JLINK_WriteReg(MSP, 0x20000800)  returns 0x00 (0000ms, 0787ms total)
T3B5C 001:402 JLINK_WriteReg(PSP, 0x20000800)  returns 0x00 (0000ms, 0787ms total)
T3B5C 001:402 JLINK_WriteReg(CFBP, 0x00000000)  returns 0x00 (0000ms, 0787ms total)
T3B5C 001:402 JLINK_SetBPEx(Addr = 0x20000000, Type = 0xFFFFFFF2)  returns 0x0000000C (0000ms, 0787ms total)
T3B5C 001:402 JLINK_Go() (0003ms, 0790ms total)
T3B5C 001:405 JLINK_IsHalted()  returns FALSE (0000ms, 0790ms total)
T3B5C 001:407 JLINK_IsHalted()  returns FALSE (0000ms, 0790ms total)
T3B5C 001:409 JLINK_IsHalted()  returns FALSE (0000ms, 0790ms total)
T3B5C 001:411 JLINK_IsHalted()  returns FALSE (0000ms, 0790ms total)
T3B5C 001:413 JLINK_IsHalted()  returns FALSE (0000ms, 0790ms total)
T3B5C 001:415 JLINK_IsHalted()  returns FALSE (0000ms, 0790ms total)
T3B5C 001:417 JLINK_IsHalted()  returns FALSE (0000ms, 0790ms total)
T3B5C 001:419 JLINK_IsHalted()  returns FALSE (0000ms, 0790ms total)
T3B5C 001:421 JLINK_IsHalted()  returns FALSE (0000ms, 0790ms total)
T3B5C 001:423 JLINK_IsHalted()  returns FALSE (0000ms, 0790ms total)
T3B5C 001:425 JLINK_IsHalted()  returns FALSE (0000ms, 0790ms total)
T3B5C 001:433 JLINK_IsHalted()  returns FALSE (0000ms, 0790ms total)
T3B5C 001:435 JLINK_IsHalted()  returns FALSE (0000ms, 0790ms total)
T3B5C 001:438 JLINK_IsHalted() -- CPU_ReadMem(2 bytes @ 0x20000000)  returns TRUE (0004ms, 0794ms total)
T3B5C 001:442 JLINK_ReadReg(R15 (PC))  returns 0x20000000 (0001ms, 0791ms total)
T3B5C 001:443 JLINK_ClrBPEx(BPHandle = 0x0000000C)  returns 0x00 (0000ms, 0791ms total)
T3B5C 001:443 JLINK_ReadReg(R0)  returns 0x00000000 (0000ms, 0791ms total)
T3B5C 001:443 JLINK_WriteMem(0x20000164, 0x0400 Bytes, ...) - Data: 00 90 44 48 02 F0 2C FD 80 46 B8 F1 00 0F 1A D1 ... -- CPU_WriteMem(1024 bytes @ 0x20000164)  returns 0x400 (0011ms, 0802ms total)
T3B5C 001:454 JLINK_WriteReg(R0, 0x08002000)  returns 0x00 (0000ms, 0802ms total)
T3B5C 001:454 JLINK_WriteReg(R1, 0x00000400)  returns 0x00 (0000ms, 0802ms total)
T3B5C 001:454 JLINK_WriteReg(R2, 0x20000164)  returns 0x00 (0000ms, 0802ms total)
T3B5C 001:454 JLINK_WriteReg(R3, 0x00000000)  returns 0x00 (0000ms, 0802ms total)
T3B5C 001:454 JLINK_WriteReg(R4, 0x00000000)  returns 0x00 (0000ms, 0802ms total)
T3B5C 001:454 JLINK_WriteReg(R5, 0x00000000)  returns 0x00 (0000ms, 0802ms total)
T3B5C 001:454 JLINK_WriteReg(R6, 0x00000000)  returns 0x00 (0000ms, 0802ms total)
T3B5C 001:454 JLINK_WriteReg(R7, 0x00000000)  returns 0x00 (0000ms, 0802ms total)
T3B5C 001:454 JLINK_WriteReg(R8, 0x00000000)  returns 0x00 (0000ms, 0802ms total)
T3B5C 001:454 JLINK_WriteReg(R9, 0x20000160)  returns 0x00 (0000ms, 0802ms total)
T3B5C 001:454 JLINK_WriteReg(R10, 0x00000000)  returns 0x00 (0000ms, 0802ms total)
T3B5C 001:454 JLINK_WriteReg(R11, 0x00000000)  returns 0x00 (0000ms, 0802ms total)
T3B5C 001:454 JLINK_WriteReg(R12, 0x00000000)  returns 0x00 (0000ms, 0802ms total)
T3B5C 001:454 JLINK_WriteReg(R13 (SP), 0x20000800)  returns 0x00 (0000ms, 0802ms total)
T3B5C 001:454 JLINK_WriteReg(R14, 0x20000001)  returns 0x00 (0000ms, 0802ms total)
T3B5C 001:454 JLINK_WriteReg(R15 (PC), 0x200000F4)  returns 0x00 (0000ms, 0802ms total)
T3B5C 001:454 JLINK_WriteReg(XPSR, 0x01000000)  returns 0x00 (0000ms, 0802ms total)
T3B5C 001:454 JLINK_WriteReg(MSP, 0x20000800)  returns 0x00 (0000ms, 0802ms total)
T3B5C 001:454 JLINK_WriteReg(PSP, 0x20000800)  returns 0x00 (0000ms, 0802ms total)
T3B5C 001:454 JLINK_WriteReg(CFBP, 0x00000000)  returns 0x00 (0000ms, 0802ms total)
T3B5C 001:454 JLINK_SetBPEx(Addr = 0x20000000, Type = 0xFFFFFFF2)  returns 0x0000000D (0000ms, 0802ms total)
T3B5C 001:454 JLINK_Go() (0002ms, 0804ms total)
T3B5C 001:456 JLINK_IsHalted()  returns FALSE (0001ms, 0805ms total)
T3B5C 001:459 JLINK_IsHalted()  returns FALSE (0000ms, 0804ms total)
T3B5C 001:461 JLINK_IsHalted()  returns FALSE (0000ms, 0804ms total)
T3B5C 001:463 JLINK_IsHalted()  returns FALSE (0000ms, 0804ms total)
T3B5C 001:465 JLINK_IsHalted()  returns FALSE (0000ms, 0804ms total)
T3B5C 001:467 JLINK_IsHalted()  returns FALSE (0000ms, 0804ms total)
T3B5C 001:469 JLINK_IsHalted()  returns FALSE (0000ms, 0804ms total)
T3B5C 001:471 JLINK_IsHalted()  returns FALSE (0000ms, 0804ms total)
T3B5C 001:473 JLINK_IsHalted()  returns FALSE (0000ms, 0804ms total)
T3B5C 001:475 JLINK_IsHalted()  returns FALSE (0000ms, 0804ms total)
T3B5C 001:477 JLINK_IsHalted()  returns FALSE (0000ms, 0804ms total)
T3B5C 001:479 JLINK_IsHalted()  returns FALSE (0000ms, 0804ms total)
T3B5C 001:481 JLINK_IsHalted()  returns FALSE (0000ms, 0804ms total)
T3B5C 001:483 JLINK_IsHalted()  returns FALSE (0000ms, 0804ms total)
T3B5C 001:485 JLINK_IsHalted()  returns FALSE (0000ms, 0804ms total)
T3B5C 001:487 JLINK_IsHalted() -- CPU_ReadMem(2 bytes @ 0x20000000)  returns TRUE (0005ms, 0809ms total)
T3B5C 001:492 JLINK_ReadReg(R15 (PC))  returns 0x20000000 (0000ms, 0804ms total)
T3B5C 001:492 JLINK_ClrBPEx(BPHandle = 0x0000000D)  returns 0x00 (0000ms, 0804ms total)
T3B5C 001:492 JLINK_ReadReg(R0)  returns 0x00000000 (0000ms, 0804ms total)
T3B5C 001:492 JLINK_WriteMem(0x20000164, 0x0400 Bytes, ...) - Data: 40 EA 01 20 B7 E7 28 6A 00 EB D4 11 28 46 FF F7 ... -- CPU_WriteMem(1024 bytes @ 0x20000164)  returns 0x400 (0011ms, 0815ms total)
T3B5C 001:503 JLINK_WriteReg(R0, 0x08002400)  returns 0x00 (0000ms, 0815ms total)
T3B5C 001:503 JLINK_WriteReg(R1, 0x00000400)  returns 0x00 (0000ms, 0815ms total)
T3B5C 001:503 JLINK_WriteReg(R2, 0x20000164)  returns 0x00 (0000ms, 0815ms total)
T3B5C 001:503 JLINK_WriteReg(R3, 0x00000000)  returns 0x00 (0000ms, 0815ms total)
T3B5C 001:503 JLINK_WriteReg(R4, 0x00000000)  returns 0x00 (0000ms, 0815ms total)
T3B5C 001:503 JLINK_WriteReg(R5, 0x00000000)  returns 0x00 (0000ms, 0815ms total)
T3B5C 001:503 JLINK_WriteReg(R6, 0x00000000)  returns 0x00 (0000ms, 0815ms total)
T3B5C 001:503 JLINK_WriteReg(R7, 0x00000000)  returns 0x00 (0000ms, 0815ms total)
T3B5C 001:503 JLINK_WriteReg(R8, 0x00000000)  returns 0x00 (0000ms, 0815ms total)
T3B5C 001:503 JLINK_WriteReg(R9, 0x20000160)  returns 0x00 (0000ms, 0815ms total)
T3B5C 001:503 JLINK_WriteReg(R10, 0x00000000)  returns 0x00 (0000ms, 0815ms total)
T3B5C 001:503 JLINK_WriteReg(R11, 0x00000000)  returns 0x00 (0000ms, 0815ms total)
T3B5C 001:503 JLINK_WriteReg(R12, 0x00000000)  returns 0x00 (0000ms, 0815ms total)
T3B5C 001:503 JLINK_WriteReg(R13 (SP), 0x20000800)  returns 0x00 (0000ms, 0815ms total)
T3B5C 001:503 JLINK_WriteReg(R14, 0x20000001)  returns 0x00 (0000ms, 0815ms total)
T3B5C 001:503 JLINK_WriteReg(R15 (PC), 0x200000F4)  returns 0x00 (0000ms, 0815ms total)
T3B5C 001:503 JLINK_WriteReg(XPSR, 0x01000000)  returns 0x00 (0000ms, 0815ms total)
T3B5C 001:503 JLINK_WriteReg(MSP, 0x20000800)  returns 0x00 (0000ms, 0815ms total)
T3B5C 001:503 JLINK_WriteReg(PSP, 0x20000800)  returns 0x00 (0000ms, 0815ms total)
T3B5C 001:503 JLINK_WriteReg(CFBP, 0x00000000)  returns 0x00 (0000ms, 0815ms total)
